
**** 01/05/22 15:11:58 ********* PSpice 9.2 (Mar 2000) ******** ID# 1 ********

 ** Profile: "SCHEMATIC1-Q2_LL"  [ C:\USERS\AMIR AND AMIN\DESKTOP\Elec_FinalProject\Soal2_left\soal2_left-SCHEMATIC1-Q2_LL.sim ] 


 ****     CIRCUIT DESCRIPTION


******************************************************************************




** Creating circuit file "soal2_left-SCHEMATIC1-Q2_LL.sim.cir" 
** WARNING: THIS AUTOMATICALLY GENERATED FILE MAY BE OVERWRITTEN BY SUBSEQUENT SIMULATIONS

*Libraries: 
* Local Libraries :
* From [PSPICE NETLIST] section of C:\Program Files\Orcad\PSpice\PSpice.ini file:
.lib "nom.lib" 

*Analysis directives: 
.PROBE V(*) I(*) W(*) D(*) NOISE(*) 
.INC ".\soal2_left-SCHEMATIC1.net" 



**** INCLUDING soal2_left-SCHEMATIC1.net ****
* source SOAL2_LEFT
V_V1         N03270 0 1
R_R1         N03008 N03042  6  
G_G1         N03270 N03042 N03008 N03042 0.5
X_H1    N03528 0 N03008 0 SCHEMATIC1_H1 
R_R3         N03042 N03270  2  
R_R2         N03528 N03042  10  

.subckt SCHEMATIC1_H1 1 2 3 4  
H_H1         3 4 VH_H1 4
VH_H1         1 2 0V
.ends SCHEMATIC1_H1

**** RESUMING soal2_left-SCHEMATIC1-Q2_LL.sim.cir ****
.END

**** 01/05/22 15:11:58 ********* PSpice 9.2 (Mar 2000) ******** ID# 1 ********

 ** Profile: "SCHEMATIC1-Q2_LL"  [ C:\USERS\AMIR AND AMIN\DESKTOP\Elec_FinalProject\Soal2_left\soal2_left-SCHEMATIC1-Q2_LL.sim ] 


 ****     SMALL SIGNAL BIAS SOLUTION       TEMPERATURE =   27.000 DEG C


******************************************************************************



 NODE   VOLTAGE     NODE   VOLTAGE     NODE   VOLTAGE     NODE   VOLTAGE


(N03008)     .2000 (N03042)     .5000 (N03270)    1.0000 (N03528)    0.0000 




    VOLTAGE SOURCE CURRENTS
    NAME         CURRENT

    V_V1        -1.000E-01
    X_H1.VH_H1   5.000E-02

    TOTAL POWER DISSIPATION   1.00E-01  WATTS



          JOB CONCLUDED

          TOTAL JOB TIME            0.00
