
**** 10/29/21 00:42:55 ********* PSpice 9.2 (Mar 2000) ******** ID# 1 ********

 ** Profile: "SCHEMATIC1-Sim"  [ E:\EEC Simulations\HW01s\Q4\eec-hw03-q4-SCHEMATIC1-Sim.sim ] 


 ****     CIRCUIT DESCRIPTION


******************************************************************************




** Creating circuit file "eec-hw03-q4-SCHEMATIC1-Sim.sim.cir" 
** WARNING: THIS AUTOMATICALLY GENERATED FILE MAY BE OVERWRITTEN BY SUBSEQUENT SIMULATIONS

*Libraries: 
* Local Libraries :
* From [PSPICE NETLIST] section of C:\Program Files\Orcad\PSpice\PSpice.ini file:
.lib "nom.lib" 

*Analysis directives: 
.PROBE V(*) I(*) W(*) D(*) NOISE(*) 
.INC ".\eec-hw03-q4-SCHEMATIC1.net" 



**** INCLUDING eec-hw03-q4-SCHEMATIC1.net ****
* source EEC-HW03-Q4
G_G1         N00006 N00747 N00775 N00747 1.5
V_V1         N00693 0 6
R_R4         N00006 N01714  1  
R_R5         N00006 N00693  4  
X_H1    N01714 0 N00747 N00693 SCHEMATIC1_H1 
R_R6         N00747 N00775  1  
R_R7         N00006 N00775  2  
I_I1         N00775 0 DC 6  

.subckt SCHEMATIC1_H1 1 2 3 4  
H_H1         3 4 VH_H1 4
VH_H1         1 2 0V
.ends SCHEMATIC1_H1

**** RESUMING eec-hw03-q4-SCHEMATIC1-Sim.sim.cir ****
.END

**** 10/29/21 00:42:55 ********* PSpice 9.2 (Mar 2000) ******** ID# 1 ********

 ** Profile: "SCHEMATIC1-Sim"  [ E:\EEC Simulations\HW01s\Q4\eec-hw03-q4-SCHEMATIC1-Sim.sim ] 


 ****     SMALL SIGNAL BIAS SOLUTION       TEMPERATURE =   27.000 DEG C


******************************************************************************



 NODE   VOLTAGE     NODE   VOLTAGE     NODE   VOLTAGE     NODE   VOLTAGE


(N00006)   -8.4000 (N00693)    6.0000 (N00747)  -27.6000 (N00775)  -25.2000     

(N01714)    0.0000 




    VOLTAGE SOURCE CURRENTS
    NAME         CURRENT

    V_V1         2.400E+00
    X_H1.VH_H1  -8.400E+00

    TOTAL POWER DISSIPATION  -1.44E+01  WATTS



          JOB CONCLUDED

          TOTAL JOB TIME             .02
