
**** 10/29/21 11:22:53 ********* PSpice 9.2 (Mar 2000) ******** ID# 1 ********

 ** Profile: "SCHEMATIC1-Sim"  [ E:\EEC Simulations\HW01s\Q5\eec-hw03-q5-SCHEMATIC1-Sim.sim ] 


 ****     CIRCUIT DESCRIPTION


******************************************************************************




** Creating circuit file "eec-hw03-q5-SCHEMATIC1-Sim.sim.cir" 
** WARNING: THIS AUTOMATICALLY GENERATED FILE MAY BE OVERWRITTEN BY SUBSEQUENT SIMULATIONS

*Libraries: 
* Local Libraries :
* From [PSPICE NETLIST] section of C:\Program Files\Orcad\PSpice\PSpice.ini file:
.lib "nom.lib" 

*Analysis directives: 
.PROBE V(*) I(*) W(*) D(*) NOISE(*) 
.INC ".\eec-hw03-q5-SCHEMATIC1.net" 



**** INCLUDING eec-hw03-q5-SCHEMATIC1.net ****
* source EEC-HW03-Q5
R_R2         N02694 N03903  1  
R_R4         N03081 0  1  
V_V2         N02748 N03387 18
R_R1         N02694 N02748  2  
R_R3         N02694 N03081  2  
I_I2         N03387 N03081 DC 4  
G_G2         0 N02694 N03081 0 1.5
X_H2    N03903 N03387 0 N02748 SCHEMATIC1_H2 

.subckt SCHEMATIC1_H2 1 2 3 4  
H_H2         3 4 VH_H2 4
VH_H2         1 2 0V
.ends SCHEMATIC1_H2

**** RESUMING eec-hw03-q5-SCHEMATIC1-Sim.sim.cir ****
.END

**** 10/29/21 11:22:53 ********* PSpice 9.2 (Mar 2000) ******** ID# 1 ********

 ** Profile: "SCHEMATIC1-Sim"  [ E:\EEC Simulations\HW01s\Q5\eec-hw03-q5-SCHEMATIC1-Sim.sim ] 


 ****     SMALL SIGNAL BIAS SOLUTION       TEMPERATURE =   27.000 DEG C


******************************************************************************



 NODE   VOLTAGE     NODE   VOLTAGE     NODE   VOLTAGE     NODE   VOLTAGE


(N02694)  -35.0000 (N02748)  -22.6670 (N03081)   -9.0000 (N03387)  -40.6670     

(N03903)  -40.6670 




    VOLTAGE SOURCE CURRENTS
    NAME         CURRENT

    V_V2        -1.667E+00
    X_H2.VH_H2   5.667E+00

    TOTAL POWER DISSIPATION   3.00E+01  WATTS



          JOB CONCLUDED

          TOTAL JOB TIME             .02
